
TCFAC 000:055 SEGGER J-Link V6.16 Log File (0001ms, 0038ms total)
TCFAC 000:055 DLL Compiled: Jun  2 2017 17:45:04 (0001ms, 0038ms total)
TCFAC 000:055 Logging started @ 2018-05-05 08:59 (0001ms, 0038ms total)
TCFAC 000:056 JLINK_SetWarnOutHandler(...) (0000ms, 0038ms total)
TCFAC 000:056 JLINK_OpenEx(...)
Firmware: J-Link OB-STM32F072-CortexM compiled Mar  8 2020 11:15:54
Hardware: V1.00
Feature(s): GDB, RDI, FlashBP, FlashDL, JFlash, RDDIWEBSRV Webserver running on local port 19080 (0024ms, 0062ms total)
TCFAC 000:056   returns O.K. (0024ms, 0062ms total)
TCFAC 000:080 JLINK_SetErrorOutHandler(...) (0000ms, 0062ms total)
TCFAC 000:080 JLINK_ExecCommand("ProjectFile = "D:\00\L4_NOrecord\L4_master_v16\MDK-ARM\JLinkSettings.ini"", ...). C:\Program Files (x86)\SEGGER\JLink_V616\JLinkDevices.xml evaluated successfully.Device "STM32L476RE" selected.  returns 0x00 (0087ms, 0149ms total)
TCFAC 000:168 JLINK_ExecCommand("Device = STM32L471RETx", ...). Device "STM32L476RE" selected.  returns 0x00 (0004ms, 0153ms total)
TCFAC 000:172 JLINK_ExecCommand("DisableConnectionTimeout", ...).   returns 0x01 (0000ms, 0153ms total)
TCFAC 000:172 JLINK_GetHardwareVersion()  returns 0x2710 (0000ms, 0153ms total)
TCFAC 000:172 JLINK_GetDLLVersion()  returns 61600 (0000ms, 0153ms total)
TCFAC 000:172 JLINK_GetFirmwareString(...) (0000ms, 0153ms total)
TCFAC 000:177 JLINK_GetDLLVersion()  returns 61600 (0000ms, 0153ms total)
TCFAC 000:177 JLINK_GetCompileDateTime() (0000ms, 0153ms total)
TCFAC 000:178 JLINK_GetFirmwareString(...) (0000ms, 0153ms total)
TCFAC 000:182 JLINK_GetHardwareVersion()  returns 0x2710 (0000ms, 0153ms total)
TCFAC 000:187 JLINK_TIF_Select(JLINKARM_TIF_SWD)  returns 0x00 (0005ms, 0158ms total)
TCFAC 000:192 JLINK_SetSpeed(50000) (0001ms, 0159ms total)
TCFAC 000:193 JLINK_GetId() >0x10B TIF>Found SW-DP with ID 0x2BA01477 >0x0D TIF> >0x28 TIF> >0x0D TIF> >0x28 TIF> >0x0D TIF> >0x28 TIF> >0x0D TIF> >0x28 TIF> >0x0D TIF> >0x21 TIF> >0x0D TIF> >0x28 TIF> >0x0D TIF> >0x28 TIF> >0x0D TIF> >0x28 TIF> >0x0D TIF> >0x21 TIF> >0x0D TIF> >0x21 TIF> >0x0D TIF> >0x28 TIF> >0x0D TIF> >0x21 TIF> >0x0D TIF> >0x21 TIF> >0x0D TIF> >0x28 TIF> >0x0D TIF> >0x21 TIF> >0x0D TIF> >0x21 TIF> >0x0D TIF> >0x28 TIF> >0x0D TIF> >0x21 TIF> >0x0D TIF> >0x21 TIF> >0x0D TIF> >0x28 TIF>
 >0x0D TIF> >0x21 TIF> >0x0D TIF> >0x21 TIF> >0x0D TIF> >0x28 TIF> >0x0D TIF> >0x21 TIF> >0x0D TIF> >0x21 TIF> >0x0D TIF> >0x28 TIF> >0x0D TIF> >0x21 TIF> >0x0D TIF> >0x21 TIF> >0x0D TIF> >0x28 TIF> >0x0D TIF> >0x21 TIF> >0x0D TIF> >0x21 TIF> >0x0D TIF> >0x28 TIF> >0x0D TIF> >0x21 TIF> >0x0D TIF> >0x21 TIF> >0x0D TIF> >0x28 TIF> >0x0D TIF> >0x21 TIF> >0x0D TIF> >0x21 TIF> >0x0D TIF> >0x28 TIF> >0x0D TIF> >0x21 TIF> >0x0D TIF> >0x21 TIF> >0x0D TIF> >0x28 TIF> >0x0D TIF> >0x21 TIF> >0x0D TIF> >0x21 TIF>
 >0x0D TIF> >0x28 TIF> >0x0D TIF> >0x21 TIF> >0x0D TIF> >0x21 TIF> >0x0D TIF> >0x28 TIF> >0x0D TIF> >0x21 TIF> >0x0D TIF> >0x21 TIF> >0x0D TIF> >0x28 TIF> >0x0D TIF> >0x21 TIF> >0x0D TIF> >0x21 TIF> >0x10B TIF>Found SW-DP with ID 0x2BA01477 >0x0D TIF> >0x28 TIF> >0x0D TIF> >0x28 TIF> >0x0D TIF> >0x28 TIF> >0x0D TIF> >0x28 TIF> >0x0D TIF> >0x21 TIF> >0x0D TIF> >0x28 TIF>Scanning APs, stopping at first AHB-AP found. >0x0D TIF> >0x28 TIF> >0x0D TIF> >0x21 TIF> >0x0D TIF> >0x21 TIF>
AP[0] IDR: 0x24770011 (AHB-AP) >0x0D TIF> >0x28 TIF> >0x0D TIF> >0x21 TIF> >0x0D TIF> >0x21 TIF>AHB-AP ROM: 0xE00FF000 (Base addr. of first ROM table) >0x0D TIF> >0x28 TIF> >0x0D TIF> >0x28 TIF> >0x0D TIF> >0x28 TIF> >0x0D TIF> >0x21 TIF> >0x0D TIF> >0x21 TIF> >0x0D TIF> >0x28 TIF> >0x0D TIF> >0x21 TIF> >0x0D TIF> >0x21 TIF>CPUID reg: 0x410FC241. Implementer code: 0x41 (ARM)Found Cortex-M4 r0p1, Little endian. -- CPU_ReadMem(4 bytes @ 0xE000EDF0) -- CPU_WriteMem(4 bytes @ 0xE000EDF0)
 -- CPU_ReadMem(4 bytes @ 0xE0002000)FPUnit: 6 code (BP) slots and 2 literal slots -- CPU_ReadMem(4 bytes @ 0xE000EDFC) -- CPU_WriteMem(4 bytes @ 0xE000EDFC) -- CPU_ReadMem(4 bytes @ 0xE0001000) -- CPU_WriteMem(4 bytes @ 0xE0001000) -- CPU_ReadMem(4 bytes @ 0xE000ED88) -- CPU_WriteMem(4 bytes @ 0xE000ED88) -- CPU_ReadMem(4 bytes @ 0xE000ED88) -- CPU_WriteMem(4 bytes @ 0xE000ED88)CoreSight components:ROMTbl[0] @ E00FF000 -- CPU_ReadMem(16 bytes @ 0xE00FF000) -- CPU_ReadMem(16 bytes @ 0xE000EFF0)
 -- CPU_ReadMem(16 bytes @ 0xE000EFE0)ROMTbl[0][0]: E000E000, CID: B105E00D, PID: 000BB00C SCS -- CPU_ReadMem(16 bytes @ 0xE0001FF0) -- CPU_ReadMem(16 bytes @ 0xE0001FE0)ROMTbl[0][1]: E0001000, CID: B105E00D, PID: 003BB002 DWT -- CPU_ReadMem(16 bytes @ 0xE0002FF0) -- CPU_ReadMem(16 bytes @ 0xE0002FE0)ROMTbl[0][2]: E0002000, CID: B105E00D, PID: 002BB003 FPB -- CPU_ReadMem(16 bytes @ 0xE0000FF0) -- CPU_ReadMem(16 bytes @ 0xE0000FE0)ROMTbl[0][3]: E0000000, CID: B105E00D, PID: 003BB001 ITM
 -- CPU_ReadMem(16 bytes @ 0xE00FF010) -- CPU_ReadMem(16 bytes @ 0xE0040FF0) -- CPU_ReadMem(16 bytes @ 0xE0040FE0)ROMTbl[0][4]: E0040000, CID: B105900D, PID: 000BB9A1 TPIU -- CPU_ReadMem(16 bytes @ 0xE0041FF0) -- CPU_ReadMem(16 bytes @ 0xE0041FE0)ROMTbl[0][5]: E0041000, CID: B105900D, PID: 000BB925 ETM >0x0D TIF> >0x21 TIF>  returns 0x2BA01477 (0323ms, 0482ms total)
TCFAC 000:517 JLINK_GetDLLVersion()  returns 61600 (0000ms, 0482ms total)
TCFAC 000:517 JLINK_CORE_GetFound()  returns 0xE0000FF (0000ms, 0482ms total)
TCFAC 000:517 JLINK_GetDebugInfo(0x100 = JLINKARM_ROM_TABLE_ADDR_INDEX) -- Value=0xE00FF000  returns 0x00 (0000ms, 0482ms total)
TCFAC 000:522 JLINK_GetDebugInfo(0x100 = JLINKARM_ROM_TABLE_ADDR_INDEX) -- Value=0xE00FF000  returns 0x00 (0000ms, 0482ms total)
TCFAC 000:522 JLINK_GetDebugInfo(0x101 = JLINKARM_DEBUG_INFO_ETM_ADDR_INDEX) -- Value=0xE0041000  returns 0x00 (0000ms, 0482ms total)
TCFAC 000:522 JLINK_GetDebugInfo(0x102 = JLINKARM_DEBUG_INFO_MTB_ADDR_INDEX) -- Value=0x00000000  returns 0x00 (0000ms, 0482ms total)
TCFAC 000:522 JLINK_GetDebugInfo(0x103 = JLINKARM_DEBUG_INFO_TPIU_ADDR_INDEX) -- Value=0xE0040000  returns 0x00 (0000ms, 0482ms total)
TCFAC 000:522 JLINK_GetDebugInfo(0x104 = JLINKARM_DEBUG_INFO_ITM_ADDR_INDEX) -- Value=0xE0000000  returns 0x00 (0001ms, 0483ms total)
TCFAC 000:523 JLINK_GetDebugInfo(0x105 = JLINKARM_DEBUG_INFO_DWT_ADDR_INDEX) -- Value=0xE0001000  returns 0x00 (0000ms, 0483ms total)
TCFAC 000:523 JLINK_GetDebugInfo(0x106 = JLINKARM_DEBUG_INFO_FPB_ADDR_INDEX) -- Value=0xE0002000  returns 0x00 (0000ms, 0483ms total)
TCFAC 000:523 JLINK_GetDebugInfo(0x107 = JLINKARM_DEBUG_INFO_NVIC_ADDR_INDEX) -- Value=0xE000E000  returns 0x00 (0000ms, 0483ms total)
TCFAC 000:523 JLINK_GetDebugInfo(0x10C = JLINKARM_DEBUG_INFO_DBG_ADDR_INDEX) -- Value=0xE000EDF0  returns 0x00 (0000ms, 0483ms total)
TCFAC 000:523 JLINK_ReadMemU32(0xE000EF40, 0x0001 Items, ...) -- CPU_ReadMem(4 bytes @ 0xE000EF40) - Data: 21 00 11 10  returns 0x01 (0001ms, 0484ms total)
TCFAC 000:524 JLINK_ReadMemU32(0xE000EF44, 0x0001 Items, ...) -- CPU_ReadMem(4 bytes @ 0xE000EF44) - Data: 11 00 00 11  returns 0x01 (0002ms, 0486ms total)
TCFAC 000:526 JLINK_ReadMemU32(0xE000ED00, 0x0001 Items, ...) -- CPU_ReadMem(4 bytes @ 0xE000ED00) - Data: 41 C2 0F 41  returns 0x01 (0001ms, 0487ms total)
TCFAC 000:527 JLINK_SetResetType(JLINKARM_CM3_RESET_TYPE_NORMAL)  returns JLINKARM_CM3_RESET_TYPE_NORMAL (0000ms, 0487ms total)
TCFAC 000:527 JLINK_Reset() -- CPU is running -- CPU_WriteMem(4 bytes @ 0xE000EDF0) -- CPU is running -- CPU_WriteMem(4 bytes @ 0xE000EDFC) >0x35 TIF>Setting AIRCR.SYSRESETREQ -- CPU is running -- CPU_WriteMem(4 bytes @ 0xE000ED0C) >0x0D TIF> >0x28 TIF> -- CPU_ReadMem(4 bytes @ 0xE000ED0C) -- CPU_ReadMem(4 bytes @ 0xE000EDF0) -- CPU_ReadMem(4 bytes @ 0xE000EDF0) -- CPU_ReadMem(4 bytes @ 0xE000EDF0) -- CPU is running -- CPU_WriteMem(4 bytes @ 0xE000EDF0) -- CPU is running
 -- CPU_WriteMem(4 bytes @ 0xE000EDFC) -- CPU_ReadMem(4 bytes @ 0xE000EDF0) -- CPU_WriteMem(4 bytes @ 0xE0002000) -- CPU_ReadMem(4 bytes @ 0xE000EDFC) -- CPU_ReadMem(4 bytes @ 0xE0001000) (0092ms, 0579ms total)
TCFAC 000:619 JLINK_Halt()  returns 0x00 (0001ms, 0580ms total)
TCFAC 000:620 JLINK_IsHalted()  returns TRUE (0000ms, 0580ms total)
TCFAC 000:620 JLINK_ReadMemU32(0xE000EDF0, 0x0001 Items, ...) -- CPU_ReadMem(4 bytes @ 0xE000EDF0) - Data: 03 00 03 00  returns 0x01 (0001ms, 0581ms total)
TCFAC 000:621 JLINK_WriteU32(0xE000EDF0, 0xA05F0003) -- CPU_WriteMem(4 bytes @ 0xE000EDF0)  returns 0x00 (0001ms, 0582ms total)
TCFAC 000:623 JLINK_WriteU32(0xE000EDFC, 0x01000000) -- CPU_WriteMem(4 bytes @ 0xE000EDFC)  returns 0x00 (0001ms, 0583ms total)
TCFAC 000:643 JLINK_GetHWStatus(...)  returns 0x00 (0001ms, 0584ms total)
TCFAC 000:657 JLINK_GetNumBPUnits(Type = 0xFFFFFF00)  returns 0x06 (0000ms, 0584ms total)
TCFAC 000:657 JLINK_GetNumBPUnits(Type = 0xF0)  returns 0x2000 (0000ms, 0584ms total)
TCFAC 000:657 JLINK_GetNumWPUnits()  returns 0x04 (0000ms, 0584ms total)
TCFAC 000:669 JLINK_GetSpeed()  returns 0x7D0 (0000ms, 0584ms total)
TCFAC 000:677 JLINK_ReadMemU32(0xE000E004, 0x0001 Items, ...) -- CPU_ReadMem(4 bytes @ 0xE000E004) - Data: 02 00 00 00  returns 0x01 (0002ms, 0586ms total)
TCFAC 000:679 JLINK_ReadMemU32(0xE000E004, 0x0001 Items, ...) -- CPU_ReadMem(4 bytes @ 0xE000E004) - Data: 02 00 00 00  returns 0x01 (0001ms, 0587ms total)
TCFAC 000:680 JLINK_WriteMem(0xE0001000, 0x001C Bytes, ...) - Data: 01 00 00 00 00 00 00 00 00 00 00 00 00 00 00 00 ... -- CPU_WriteMem(28 bytes @ 0xE0001000)  returns 0x1C (0003ms, 0590ms total)
TCFAC 000:683 JLINK_ReadMem (0xE0001000, 0x001C Bytes, ...) -- CPU_ReadMem(28 bytes @ 0xE0001000) - Data: 01 00 00 40 00 00 00 00 00 00 00 00 00 00 00 00 ...  returns 0x00 (0002ms, 0592ms total)
TCFAC 000:685 JLINK_Halt()  returns 0x00 (0000ms, 0592ms total)
TCFAC 000:685 JLINK_IsHalted()  returns TRUE (0000ms, 0592ms total)
TCFAC 000:690 JLINK_WriteMem(0x20000000, 0x0190 Bytes, ...) - Data: 00 BE 0A E0 0D 78 2D 06 68 40 08 24 40 00 00 D3 ... -- CPU_WriteMem(400 bytes @ 0x20000000)  returns 0x190 (0006ms, 0598ms total)
TCFAC 000:696 JLINK_WriteReg(R0, 0x08000000)  returns 0x00 (0000ms, 0598ms total)
TCFAC 000:696 JLINK_WriteReg(R1, 0x003D0900)  returns 0x00 (0000ms, 0598ms total)
TCFAC 000:696 JLINK_WriteReg(R2, 0x00000001)  returns 0x00 (0000ms, 0598ms total)
TCFAC 000:696 JLINK_WriteReg(R3, 0x00000000)  returns 0x00 (0000ms, 0598ms total)
TCFAC 000:696 JLINK_WriteReg(R4, 0x00000000)  returns 0x00 (0000ms, 0598ms total)
TCFAC 000:696 JLINK_WriteReg(R5, 0x00000000)  returns 0x00 (0000ms, 0598ms total)
TCFAC 000:696 JLINK_WriteReg(R6, 0x00000000)  returns 0x00 (0000ms, 0598ms total)
TCFAC 000:696 JLINK_WriteReg(R7, 0x00000000)  returns 0x00 (0000ms, 0598ms total)
TCFAC 000:696 JLINK_WriteReg(R8, 0x00000000)  returns 0x00 (0000ms, 0598ms total)
TCFAC 000:696 JLINK_WriteReg(R9, 0x2000018C)  returns 0x00 (0000ms, 0598ms total)
TCFAC 000:696 JLINK_WriteReg(R10, 0x00000000)  returns 0x00 (0000ms, 0598ms total)
TCFAC 000:696 JLINK_WriteReg(R11, 0x00000000)  returns 0x00 (0000ms, 0598ms total)
TCFAC 000:696 JLINK_WriteReg(R12, 0x00000000)  returns 0x00 (0000ms, 0598ms total)
TCFAC 000:696 JLINK_WriteReg(R13 (SP), 0x20001000)  returns 0x00 (0000ms, 0598ms total)
TCFAC 000:696 JLINK_WriteReg(R14, 0x20000001)  returns 0x00 (0000ms, 0598ms total)
TCFAC 000:696 JLINK_WriteReg(R15 (PC), 0x20000036)  returns 0x00 (0000ms, 0598ms total)
TCFAC 000:696 JLINK_WriteReg(XPSR, 0x01000000)  returns 0x00 (0000ms, 0598ms total)
TCFAC 000:696 JLINK_WriteReg(MSP, 0x20001000)  returns 0x00 (0000ms, 0598ms total)
TCFAC 000:696 JLINK_WriteReg(PSP, 0x20001000)  returns 0x00 (0000ms, 0598ms total)
TCFAC 000:696 JLINK_WriteReg(CFBP, 0x00000000)  returns 0x00 (0000ms, 0598ms total)
TCFAC 000:696 JLINK_SetBPEx(Addr = 0x20000000, Type = 0xFFFFFFF2) -- CPU_ReadMem(2 bytes @ 0x20000000)  returns 0x00000001 (0002ms, 0600ms total)
TCFAC 000:698 JLINK_Go() -- CPU_WriteMem(2 bytes @ 0x20000000) -- CPU_ReadMem(4 bytes @ 0xE0001000) -- CPU_WriteMem(4 bytes @ 0xE0002008) -- CPU_WriteMem(4 bytes @ 0xE000200C) -- CPU_WriteMem(4 bytes @ 0xE0002010) -- CPU_WriteMem(4 bytes @ 0xE0002014) -- CPU_WriteMem(4 bytes @ 0xE0002018) -- CPU_WriteMem(4 bytes @ 0xE000201C) -- CPU_WriteMem(4 bytes @ 0xE0001004) (0011ms, 0611ms total)
TCFAC 000:709 JLINK_IsHalted() -- CPU_ReadMem(2 bytes @ 0x20000000)  returns TRUE (0008ms, 0619ms total)
TCFAC 000:717 JLINK_ReadReg(R15 (PC))  returns 0x20000000 (0000ms, 0611ms total)
TCFAC 000:717 JLINK_ClrBPEx(BPHandle = 0x00000001)  returns 0x00 (0000ms, 0611ms total)
TCFAC 000:717 JLINK_ReadReg(R0)  returns 0x00000000 (0000ms, 0611ms total)
TCFAC 000:717 JLINK_WriteReg(R0, 0x08000000)  returns 0x00 (0000ms, 0611ms total)
TCFAC 000:717 JLINK_WriteReg(R1, 0x003D0900)  returns 0x00 (0000ms, 0611ms total)
TCFAC 000:717 JLINK_WriteReg(R2, 0x00000001)  returns 0x00 (0000ms, 0611ms total)
TCFAC 000:717 JLINK_WriteReg(R3, 0x00000000)  returns 0x00 (0000ms, 0611ms total)
TCFAC 000:717 JLINK_WriteReg(R4, 0x00000000)  returns 0x00 (0000ms, 0611ms total)
TCFAC 000:718 JLINK_WriteReg(R5, 0x00000000)  returns 0x00 (0000ms, 0611ms total)
TCFAC 000:718 JLINK_WriteReg(R6, 0x00000000)  returns 0x00 (0000ms, 0611ms total)
TCFAC 000:718 JLINK_WriteReg(R7, 0x00000000)  returns 0x00 (0000ms, 0611ms total)
TCFAC 000:718 JLINK_WriteReg(R8, 0x00000000)  returns 0x00 (0000ms, 0611ms total)
TCFAC 000:718 JLINK_WriteReg(R9, 0x2000018C)  returns 0x00 (0000ms, 0611ms total)
TCFAC 000:718 JLINK_WriteReg(R10, 0x00000000)  returns 0x00 (0000ms, 0611ms total)
TCFAC 000:718 JLINK_WriteReg(R11, 0x00000000)  returns 0x00 (0000ms, 0611ms total)
TCFAC 000:718 JLINK_WriteReg(R12, 0x00000000)  returns 0x00 (0000ms, 0611ms total)
TCFAC 000:718 JLINK_WriteReg(R13 (SP), 0x20001000)  returns 0x00 (0000ms, 0611ms total)
TCFAC 000:718 JLINK_WriteReg(R14, 0x20000001)  returns 0x00 (0000ms, 0611ms total)
TCFAC 000:718 JLINK_WriteReg(R15 (PC), 0x20000078)  returns 0x00 (0000ms, 0611ms total)
TCFAC 000:718 JLINK_WriteReg(XPSR, 0x01000000)  returns 0x00 (0000ms, 0611ms total)
TCFAC 000:718 JLINK_WriteReg(MSP, 0x20001000)  returns 0x00 (0000ms, 0611ms total)
TCFAC 000:718 JLINK_WriteReg(PSP, 0x20001000)  returns 0x00 (0000ms, 0611ms total)
TCFAC 000:718 JLINK_WriteReg(CFBP, 0x00000000)  returns 0x00 (0000ms, 0611ms total)
TCFAC 000:718 JLINK_SetBPEx(Addr = 0x20000000, Type = 0xFFFFFFF2)  returns 0x00000002 (0000ms, 0611ms total)
TCFAC 000:718 JLINK_Go() -- CPU_ReadMem(4 bytes @ 0xE0001000) (0005ms, 0616ms total)
TCFAC 000:723 JLINK_IsHalted()  returns FALSE (0001ms, 0617ms total)
TCFAC 000:774 JLINK_IsHalted() -- CPU_ReadMem(2 bytes @ 0x20000000)  returns TRUE (0008ms, 0624ms total)
TCFAC 000:782 JLINK_ReadReg(R15 (PC))  returns 0x20000000 (0000ms, 0616ms total)
TCFAC 000:782 JLINK_ClrBPEx(BPHandle = 0x00000002)  returns 0x00 (0000ms, 0616ms total)
TCFAC 000:782 JLINK_ReadReg(R0)  returns 0x00000000 (0000ms, 0616ms total)
TCFAC 000:836 JLINK_WriteReg(R0, 0x00000001)  returns 0x00 (0000ms, 0616ms total)
TCFAC 000:836 JLINK_WriteReg(R1, 0x003D0900)  returns 0x00 (0001ms, 0617ms total)
TCFAC 000:837 JLINK_WriteReg(R2, 0x00000001)  returns 0x00 (0000ms, 0617ms total)
TCFAC 000:837 JLINK_WriteReg(R3, 0x00000000)  returns 0x00 (0000ms, 0617ms total)
TCFAC 000:837 JLINK_WriteReg(R4, 0x00000000)  returns 0x00 (0000ms, 0617ms total)
TCFAC 000:837 JLINK_WriteReg(R5, 0x00000000)  returns 0x00 (0000ms, 0617ms total)
TCFAC 000:837 JLINK_WriteReg(R6, 0x00000000)  returns 0x00 (0000ms, 0617ms total)
TCFAC 000:837 JLINK_WriteReg(R7, 0x00000000)  returns 0x00 (0000ms, 0617ms total)
TCFAC 000:837 JLINK_WriteReg(R8, 0x00000000)  returns 0x00 (0000ms, 0617ms total)
TCFAC 000:837 JLINK_WriteReg(R9, 0x2000018C)  returns 0x00 (0000ms, 0617ms total)
TCFAC 000:837 JLINK_WriteReg(R10, 0x00000000)  returns 0x00 (0000ms, 0617ms total)
TCFAC 000:837 JLINK_WriteReg(R11, 0x00000000)  returns 0x00 (0000ms, 0617ms total)
TCFAC 000:837 JLINK_WriteReg(R12, 0x00000000)  returns 0x00 (0000ms, 0617ms total)
TCFAC 000:837 JLINK_WriteReg(R13 (SP), 0x20001000)  returns 0x00 (0000ms, 0617ms total)
TCFAC 000:837 JLINK_WriteReg(R14, 0x20000001)  returns 0x00 (0000ms, 0617ms total)
TCFAC 000:837 JLINK_WriteReg(R15 (PC), 0x20000066)  returns 0x00 (0000ms, 0617ms total)
TCFAC 000:837 JLINK_WriteReg(XPSR, 0x01000000)  returns 0x00 (0000ms, 0617ms total)
TCFAC 000:837 JLINK_WriteReg(MSP, 0x20001000)  returns 0x00 (0000ms, 0617ms total)
TCFAC 000:837 JLINK_WriteReg(PSP, 0x20001000)  returns 0x00 (0000ms, 0617ms total)
TCFAC 000:837 JLINK_WriteReg(CFBP, 0x00000000)  returns 0x00 (0000ms, 0617ms total)
TCFAC 000:837 JLINK_SetBPEx(Addr = 0x20000000, Type = 0xFFFFFFF2)  returns 0x00000003 (0000ms, 0617ms total)
TCFAC 000:837 JLINK_Go() -- CPU_ReadMem(4 bytes @ 0xE0001000) (0006ms, 0623ms total)
TCFAC 000:843 JLINK_IsHalted() -- CPU_ReadMem(2 bytes @ 0x20000000)  returns TRUE (0008ms, 0631ms total)
TCFAC 000:851 JLINK_ReadReg(R15 (PC))  returns 0x20000000 (0000ms, 0623ms total)
TCFAC 000:851 JLINK_ClrBPEx(BPHandle = 0x00000003)  returns 0x00 (0000ms, 0623ms total)
TCFAC 000:851 JLINK_ReadReg(R0)  returns 0x00000000 (0000ms, 0623ms total)
TCFAC 000:861 JLINK_WriteMem(0x20000000, 0x0190 Bytes, ...) - Data: 00 BE 0A E0 0D 78 2D 06 68 40 08 24 40 00 00 D3 ... -- CPU_WriteMem(400 bytes @ 0x20000000)  returns 0x190 (0005ms, 0628ms total)
TCFAC 000:866 JLINK_WriteReg(R0, 0x08000000)  returns 0x00 (0000ms, 0628ms total)
TCFAC 000:866 JLINK_WriteReg(R1, 0x003D0900)  returns 0x00 (0000ms, 0628ms total)
TCFAC 000:866 JLINK_WriteReg(R2, 0x00000002)  returns 0x00 (0000ms, 0628ms total)
TCFAC 000:866 JLINK_WriteReg(R3, 0x00000000)  returns 0x00 (0000ms, 0628ms total)
TCFAC 000:866 JLINK_WriteReg(R4, 0x00000000)  returns 0x00 (0000ms, 0628ms total)
TCFAC 000:866 JLINK_WriteReg(R5, 0x00000000)  returns 0x00 (0000ms, 0628ms total)
TCFAC 000:866 JLINK_WriteReg(R6, 0x00000000)  returns 0x00 (0000ms, 0628ms total)
TCFAC 000:866 JLINK_WriteReg(R7, 0x00000000)  returns 0x00 (0000ms, 0628ms total)
TCFAC 000:866 JLINK_WriteReg(R8, 0x00000000)  returns 0x00 (0000ms, 0628ms total)
TCFAC 000:866 JLINK_WriteReg(R9, 0x2000018C)  returns 0x00 (0000ms, 0628ms total)
TCFAC 000:866 JLINK_WriteReg(R10, 0x00000000)  returns 0x00 (0000ms, 0628ms total)
TCFAC 000:866 JLINK_WriteReg(R11, 0x00000000)  returns 0x00 (0000ms, 0628ms total)
TCFAC 000:866 JLINK_WriteReg(R12, 0x00000000)  returns 0x00 (0000ms, 0628ms total)
TCFAC 000:866 JLINK_WriteReg(R13 (SP), 0x20001000)  returns 0x00 (0000ms, 0628ms total)
TCFAC 000:866 JLINK_WriteReg(R14, 0x20000001)  returns 0x00 (0000ms, 0628ms total)
TCFAC 000:866 JLINK_WriteReg(R15 (PC), 0x20000036)  returns 0x00 (0000ms, 0628ms total)
TCFAC 000:866 JLINK_WriteReg(XPSR, 0x01000000)  returns 0x00 (0001ms, 0629ms total)
TCFAC 000:867 JLINK_WriteReg(MSP, 0x20001000)  returns 0x00 (0000ms, 0629ms total)
TCFAC 000:867 JLINK_WriteReg(PSP, 0x20001000)  returns 0x00 (0000ms, 0629ms total)
TCFAC 000:867 JLINK_WriteReg(CFBP, 0x00000000)  returns 0x00 (0000ms, 0629ms total)
TCFAC 000:867 JLINK_SetBPEx(Addr = 0x20000000, Type = 0xFFFFFFF2) -- CPU_ReadMem(2 bytes @ 0x20000000)  returns 0x00000004 (0001ms, 0630ms total)
TCFAC 000:868 JLINK_Go() -- CPU_WriteMem(2 bytes @ 0x20000000) -- CPU_ReadMem(4 bytes @ 0xE0001000) (0008ms, 0638ms total)
TCFAC 000:876 JLINK_IsHalted() -- CPU_ReadMem(2 bytes @ 0x20000000)  returns TRUE (0008ms, 0646ms total)
TCFAC 000:884 JLINK_ReadReg(R15 (PC))  returns 0x20000000 (0000ms, 0638ms total)
TCFAC 000:884 JLINK_ClrBPEx(BPHandle = 0x00000004)  returns 0x00 (0000ms, 0638ms total)
TCFAC 000:884 JLINK_ReadReg(R0)  returns 0x00000000 (0000ms, 0638ms total)
TCFAC 000:885 JLINK_WriteMem(0x20000190, 0x0400 Bytes, ...) - Data: 70 5C 01 20 79 02 00 08 11 64 00 08 31 5B 00 08 ... -- CPU_WriteMem(1024 bytes @ 0x20000190)  returns 0x400 (0011ms, 0649ms total)
TCFAC 000:896 JLINK_WriteReg(R0, 0x08000000)  returns 0x00 (0000ms, 0649ms total)
TCFAC 000:896 JLINK_WriteReg(R1, 0x00000400)  returns 0x00 (0001ms, 0650ms total)
TCFAC 000:897 JLINK_WriteReg(R2, 0x20000190)  returns 0x00 (0000ms, 0650ms total)
TCFAC 000:897 JLINK_WriteReg(R3, 0x00000000)  returns 0x00 (0000ms, 0650ms total)
TCFAC 000:897 JLINK_WriteReg(R4, 0x00000000)  returns 0x00 (0000ms, 0650ms total)
TCFAC 000:897 JLINK_WriteReg(R5, 0x00000000)  returns 0x00 (0000ms, 0650ms total)
TCFAC 000:897 JLINK_WriteReg(R6, 0x00000000)  returns 0x00 (0000ms, 0650ms total)
TCFAC 000:897 JLINK_WriteReg(R7, 0x00000000)  returns 0x00 (0000ms, 0650ms total)
TCFAC 000:897 JLINK_WriteReg(R8, 0x00000000)  returns 0x00 (0000ms, 0650ms total)
TCFAC 000:897 JLINK_WriteReg(R9, 0x2000018C)  returns 0x00 (0000ms, 0650ms total)
TCFAC 000:897 JLINK_WriteReg(R10, 0x00000000)  returns 0x00 (0000ms, 0650ms total)
TCFAC 000:897 JLINK_WriteReg(R11, 0x00000000)  returns 0x00 (0000ms, 0650ms total)
TCFAC 000:897 JLINK_WriteReg(R12, 0x00000000)  returns 0x00 (0000ms, 0650ms total)
TCFAC 000:897 JLINK_WriteReg(R13 (SP), 0x20001000)  returns 0x00 (0000ms, 0650ms total)
TCFAC 000:897 JLINK_WriteReg(R14, 0x20000001)  returns 0x00 (0000ms, 0650ms total)
TCFAC 000:897 JLINK_WriteReg(R15 (PC), 0x2000011A)  returns 0x00 (0000ms, 0650ms total)
TCFAC 000:897 JLINK_WriteReg(XPSR, 0x01000000)  returns 0x00 (0000ms, 0650ms total)
TCFAC 000:897 JLINK_WriteReg(MSP, 0x20001000)  returns 0x00 (0000ms, 0650ms total)
TCFAC 000:897 JLINK_WriteReg(PSP, 0x20001000)  returns 0x00 (0000ms, 0650ms total)
TCFAC 000:897 JLINK_WriteReg(CFBP, 0x00000000)  returns 0x00 (0000ms, 0650ms total)
TCFAC 000:897 JLINK_SetBPEx(Addr = 0x20000000, Type = 0xFFFFFFF2)  returns 0x00000005 (0000ms, 0650ms total)
TCFAC 000:897 JLINK_Go() -- CPU_ReadMem(4 bytes @ 0xE0001000) (0005ms, 0655ms total)
TCFAC 000:902 JLINK_IsHalted()  returns FALSE (0002ms, 0657ms total)
TCFAC 000:917 JLINK_IsHalted() -- CPU_ReadMem(2 bytes @ 0x20000000)  returns TRUE (0007ms, 0662ms total)
TCFAC 000:924 JLINK_ReadReg(R15 (PC))  returns 0x20000000 (0000ms, 0655ms total)
TCFAC 000:924 JLINK_ClrBPEx(BPHandle = 0x00000005)  returns 0x00 (0000ms, 0655ms total)
TCFAC 000:924 JLINK_ReadReg(R0)  returns 0x00000000 (0000ms, 0655ms total)
TCFAC 000:925 JLINK_WriteMem(0x20000190, 0x0400 Bytes, ...) - Data: 00 42 02 EA 07 52 CD E9 00 42 00 1C 41 F5 80 11 ... -- CPU_WriteMem(1024 bytes @ 0x20000190)  returns 0x400 (0012ms, 0667ms total)
TCFAC 000:937 JLINK_WriteReg(R0, 0x08000400)  returns 0x00 (0000ms, 0667ms total)
TCFAC 000:937 JLINK_WriteReg(R1, 0x00000400)  returns 0x00 (0000ms, 0667ms total)
TCFAC 000:937 JLINK_WriteReg(R2, 0x20000190)  returns 0x00 (0000ms, 0667ms total)
TCFAC 000:937 JLINK_WriteReg(R3, 0x00000000)  returns 0x00 (0000ms, 0667ms total)
TCFAC 000:937 JLINK_WriteReg(R4, 0x00000000)  returns 0x00 (0000ms, 0667ms total)
TCFAC 000:937 JLINK_WriteReg(R5, 0x00000000)  returns 0x00 (0000ms, 0667ms total)
TCFAC 000:937 JLINK_WriteReg(R6, 0x00000000)  returns 0x00 (0000ms, 0667ms total)
TCFAC 000:937 JLINK_WriteReg(R7, 0x00000000)  returns 0x00 (0000ms, 0667ms total)
TCFAC 000:937 JLINK_WriteReg(R8, 0x00000000)  returns 0x00 (0000ms, 0667ms total)
TCFAC 000:937 JLINK_WriteReg(R9, 0x2000018C)  returns 0x00 (0000ms, 0667ms total)
TCFAC 000:937 JLINK_WriteReg(R10, 0x00000000)  returns 0x00 (0000ms, 0667ms total)
TCFAC 000:937 JLINK_WriteReg(R11, 0x00000000)  returns 0x00 (0000ms, 0667ms total)
TCFAC 000:937 JLINK_WriteReg(R12, 0x00000000)  returns 0x00 (0000ms, 0667ms total)
TCFAC 000:937 JLINK_WriteReg(R13 (SP), 0x20001000)  returns 0x00 (0000ms, 0667ms total)
TCFAC 000:937 JLINK_WriteReg(R14, 0x20000001)  returns 0x00 (0000ms, 0667ms total)
TCFAC 000:937 JLINK_WriteReg(R15 (PC), 0x2000011A)  returns 0x00 (0000ms, 0667ms total)
TCFAC 000:937 JLINK_WriteReg(XPSR, 0x01000000)  returns 0x00 (0001ms, 0668ms total)
TCFAC 000:938 JLINK_WriteReg(MSP, 0x20001000)  returns 0x00 (0000ms, 0668ms total)
TCFAC 000:938 JLINK_WriteReg(PSP, 0x20001000)  returns 0x00 (0000ms, 0668ms total)
TCFAC 000:938 JLINK_WriteReg(CFBP, 0x00000000)  returns 0x00 (0000ms, 0668ms total)
TCFAC 000:938 JLINK_SetBPEx(Addr = 0x20000000, Type = 0xFFFFFFF2)  returns 0x00000006 (0000ms, 0668ms total)
TCFAC 000:938 JLINK_Go() -- CPU_ReadMem(4 bytes @ 0xE0001000) (0006ms, 0674ms total)
TCFAC 000:944 JLINK_IsHalted()  returns FALSE (0001ms, 0675ms total)
TCFAC 000:950 JLINK_IsHalted()  returns FALSE (0001ms, 0675ms total)
TCFAC 000:953 JLINK_IsHalted()  returns FALSE (0002ms, 0676ms total)
TCFAC 000:957 JLINK_IsHalted() -- CPU_ReadMem(2 bytes @ 0x20000000)  returns TRUE (0008ms, 0682ms total)
TCFAC 000:966 JLINK_ReadReg(R15 (PC))  returns 0x20000000 (0000ms, 0674ms total)
TCFAC 000:966 JLINK_ClrBPEx(BPHandle = 0x00000006)  returns 0x00 (0000ms, 0674ms total)
TCFAC 000:966 JLINK_ReadReg(R0)  returns 0x00000000 (0000ms, 0674ms total)
TCFAC 000:967 JLINK_WriteMem(0x20000190, 0x0400 Bytes, ...) - Data: 02 F0 43 EA E0 73 06 E0 41 FA 02 F3 D0 40 C2 F1 ... -- CPU_WriteMem(1024 bytes @ 0x20000190)  returns 0x400 (0011ms, 0685ms total)
TCFAC 000:978 JLINK_WriteReg(R0, 0x08000800)  returns 0x00 (0000ms, 0685ms total)
TCFAC 000:978 JLINK_WriteReg(R1, 0x00000400)  returns 0x00 (0000ms, 0685ms total)
TCFAC 000:978 JLINK_WriteReg(R2, 0x20000190)  returns 0x00 (0000ms, 0685ms total)
TCFAC 000:978 JLINK_WriteReg(R3, 0x00000000)  returns 0x00 (0001ms, 0686ms total)
TCFAC 000:979 JLINK_WriteReg(R4, 0x00000000)  returns 0x00 (0000ms, 0686ms total)
TCFAC 000:979 JLINK_WriteReg(R5, 0x00000000)  returns 0x00 (0000ms, 0686ms total)
TCFAC 000:979 JLINK_WriteReg(R6, 0x00000000)  returns 0x00 (0000ms, 0686ms total)
TCFAC 000:979 JLINK_WriteReg(R7, 0x00000000)  returns 0x00 (0000ms, 0686ms total)
TCFAC 000:979 JLINK_WriteReg(R8, 0x00000000)  returns 0x00 (0000ms, 0686ms total)
TCFAC 000:979 JLINK_WriteReg(R9, 0x2000018C)  returns 0x00 (0000ms, 0686ms total)
TCFAC 000:979 JLINK_WriteReg(R10, 0x00000000)  returns 0x00 (0000ms, 0686ms total)
TCFAC 000:979 JLINK_WriteReg(R11, 0x00000000)  returns 0x00 (0000ms, 0686ms total)
TCFAC 000:979 JLINK_WriteReg(R12, 0x00000000)  returns 0x00 (0000ms, 0686ms total)
TCFAC 000:979 JLINK_WriteReg(R13 (SP), 0x20001000)  returns 0x00 (0000ms, 0686ms total)
TCFAC 000:979 JLINK_WriteReg(R14, 0x20000001)  returns 0x00 (0000ms, 0686ms total)
TCFAC 000:979 JLINK_WriteReg(R15 (PC), 0x2000011A)  returns 0x00 (0000ms, 0686ms total)
TCFAC 000:979 JLINK_WriteReg(XPSR, 0x01000000)  returns 0x00 (0000ms, 0686ms total)
TCFAC 000:979 JLINK_WriteReg(MSP, 0x20001000)  returns 0x00 (0000ms, 0686ms total)
TCFAC 000:979 JLINK_WriteReg(PSP, 0x20001000)  returns 0x00 (0000ms, 0686ms total)
TCFAC 000:979 JLINK_WriteReg(CFBP, 0x00000000)  returns 0x00 (0000ms, 0686ms total)
TCFAC 000:979 JLINK_SetBPEx(Addr = 0x20000000, Type = 0xFFFFFFF2)  returns 0x00000007 (0000ms, 0686ms total)
TCFAC 000:979 JLINK_Go() -- CPU_ReadMem(4 bytes @ 0xE0001000) (0006ms, 0692ms total)
TCFAC 000:985 JLINK_IsHalted()  returns FALSE (0002ms, 0694ms total)
TCFAC 000:989 JLINK_IsHalted()  returns FALSE (0001ms, 0693ms total)
TCFAC 000:993 JLINK_IsHalted()  returns FALSE (0002ms, 0694ms total)
TCFAC 000:997 JLINK_IsHalted() -- CPU_ReadMem(2 bytes @ 0x20000000)  returns TRUE (0007ms, 0699ms total)
TCFAC 001:004 JLINK_ReadReg(R15 (PC))  returns 0x20000000 (0000ms, 0692ms total)
TCFAC 001:004 JLINK_ClrBPEx(BPHandle = 0x00000007)  returns 0x00 (0000ms, 0692ms total)
TCFAC 001:004 JLINK_ReadReg(R0)  returns 0x00000000 (0000ms, 0692ms total)
TCFAC 001:006 JLINK_WriteMem(0x20000190, 0x0400 Bytes, ...) - Data: 73 46 61 75 6C 74 5F 48 61 6E 64 6C 65 72 3D 3D ... -- CPU_WriteMem(1024 bytes @ 0x20000190)  returns 0x400 (0011ms, 0703ms total)
TCFAC 001:018 JLINK_WriteReg(R0, 0x08000C00)  returns 0x00 (0000ms, 0703ms total)
TCFAC 001:018 JLINK_WriteReg(R1, 0x00000400)  returns 0x00 (0000ms, 0703ms total)
TCFAC 001:018 JLINK_WriteReg(R2, 0x20000190)  returns 0x00 (0000ms, 0703ms total)
TCFAC 001:018 JLINK_WriteReg(R3, 0x00000000)  returns 0x00 (0000ms, 0703ms total)
TCFAC 001:018 JLINK_WriteReg(R4, 0x00000000)  returns 0x00 (0000ms, 0703ms total)
TCFAC 001:018 JLINK_WriteReg(R5, 0x00000000)  returns 0x00 (0000ms, 0703ms total)
TCFAC 001:018 JLINK_WriteReg(R6, 0x00000000)  returns 0x00 (0000ms, 0703ms total)
TCFAC 001:018 JLINK_WriteReg(R7, 0x00000000)  returns 0x00 (0000ms, 0703ms total)
TCFAC 001:018 JLINK_WriteReg(R8, 0x00000000)  returns 0x00 (0000ms, 0703ms total)
TCFAC 001:018 JLINK_WriteReg(R9, 0x2000018C)  returns 0x00 (0000ms, 0703ms total)
TCFAC 001:018 JLINK_WriteReg(R10, 0x00000000)  returns 0x00 (0000ms, 0703ms total)
TCFAC 001:018 JLINK_WriteReg(R11, 0x00000000)  returns 0x00 (0000ms, 0703ms total)
TCFAC 001:018 JLINK_WriteReg(R12, 0x00000000)  returns 0x00 (0000ms, 0703ms total)
TCFAC 001:018 JLINK_WriteReg(R13 (SP), 0x20001000)  returns 0x00 (0000ms, 0703ms total)
TCFAC 001:018 JLINK_WriteReg(R14, 0x20000001)  returns 0x00 (0000ms, 0703ms total)
TCFAC 001:018 JLINK_WriteReg(R15 (PC), 0x2000011A)  returns 0x00 (0000ms, 0703ms total)
TCFAC 001:018 JLINK_WriteReg(XPSR, 0x01000000)  returns 0x00 (0000ms, 0703ms total)
TCFAC 001:018 JLINK_WriteReg(MSP, 0x20001000)  returns 0x00 (0000ms, 0703ms total)
TCFAC 001:018 JLINK_WriteReg(PSP, 0x20001000)  returns 0x00 (0000ms, 0703ms total)
TCFAC 001:018 JLINK_WriteReg(CFBP, 0x00000000)  returns 0x00 (0000ms, 0703ms total)
TCFAC 001:018 JLINK_SetBPEx(Addr = 0x20000000, Type = 0xFFFFFFF2)  returns 0x00000008 (0001ms, 0704ms total)
TCFAC 001:019 JLINK_Go() -- CPU_ReadMem(4 bytes @ 0xE0001000) (0006ms, 0710ms total)
TCFAC 001:025 JLINK_IsHalted()  returns FALSE (0001ms, 0711ms total)
TCFAC 001:032 JLINK_IsHalted()  returns FALSE (0001ms, 0711ms total)
TCFAC 001:039 JLINK_IsHalted() -- CPU_ReadMem(2 bytes @ 0x20000000)  returns TRUE (0008ms, 0718ms total)
TCFAC 001:047 JLINK_ReadReg(R15 (PC))  returns 0x20000000 (0000ms, 0710ms total)
TCFAC 001:047 JLINK_ClrBPEx(BPHandle = 0x00000008)  returns 0x00 (0001ms, 0711ms total)
TCFAC 001:048 JLINK_ReadReg(R0)  returns 0x00000000 (0000ms, 0711ms total)
TCFAC 001:049 JLINK_WriteMem(0x20000190, 0x0400 Bytes, ...) - Data: 00 08 00 48 14 04 01 40 3A 00 00 20 70 B5 06 46 ... -- CPU_WriteMem(1024 bytes @ 0x20000190)  returns 0x400 (0011ms, 0722ms total)
TCFAC 001:060 JLINK_WriteReg(R0, 0x08001000)  returns 0x00 (0000ms, 0722ms total)
TCFAC 001:060 JLINK_WriteReg(R1, 0x00000400)  returns 0x00 (0000ms, 0722ms total)
TCFAC 001:060 JLINK_WriteReg(R2, 0x20000190)  returns 0x00 (0000ms, 0722ms total)
TCFAC 001:060 JLINK_WriteReg(R3, 0x00000000)  returns 0x00 (0000ms, 0722ms total)
TCFAC 001:060 JLINK_WriteReg(R4, 0x00000000)  returns 0x00 (0000ms, 0722ms total)
TCFAC 001:060 JLINK_WriteReg(R5, 0x00000000)  returns 0x00 (0000ms, 0722ms total)
TCFAC 001:060 JLINK_WriteReg(R6, 0x00000000)  returns 0x00 (0000ms, 0722ms total)
TCFAC 001:060 JLINK_WriteReg(R7, 0x00000000)  returns 0x00 (0000ms, 0722ms total)
TCFAC 001:060 JLINK_WriteReg(R8, 0x00000000)  returns 0x00 (0000ms, 0722ms total)
TCFAC 001:060 JLINK_WriteReg(R9, 0x2000018C)  returns 0x00 (0000ms, 0722ms total)
TCFAC 001:060 JLINK_WriteReg(R10, 0x00000000)  returns 0x00 (0000ms, 0722ms total)
TCFAC 001:060 JLINK_WriteReg(R11, 0x00000000)  returns 0x00 (0000ms, 0722ms total)
TCFAC 001:060 JLINK_WriteReg(R12, 0x00000000)  returns 0x00 (0000ms, 0722ms total)
TCFAC 001:060 JLINK_WriteReg(R13 (SP), 0x20001000)  returns 0x00 (0000ms, 0722ms total)
TCFAC 001:060 JLINK_WriteReg(R14, 0x20000001)  returns 0x00 (0000ms, 0722ms total)
TCFAC 001:060 JLINK_WriteReg(R15 (PC), 0x2000011A)  returns 0x00 (0001ms, 0723ms total)
TCFAC 001:061 JLINK_WriteReg(XPSR, 0x01000000)  returns 0x00 (0000ms, 0723ms total)
TCFAC 001:061 JLINK_WriteReg(MSP, 0x20001000)  returns 0x00 (0000ms, 0723ms total)
TCFAC 001:061 JLINK_WriteReg(PSP, 0x20001000)  returns 0x00 (0000ms, 0723ms total)
TCFAC 001:061 JLINK_WriteReg(CFBP, 0x00000000)  returns 0x00 (0000ms, 0723ms total)
TCFAC 001:061 JLINK_SetBPEx(Addr = 0x20000000, Type = 0xFFFFFFF2)  returns 0x00000009 (0000ms, 0723ms total)
TCFAC 001:061 JLINK_Go() -- CPU_ReadMem(4 bytes @ 0xE0001000) (0006ms, 0729ms total)
TCFAC 001:067 JLINK_IsHalted()  returns FALSE (0001ms, 0730ms total)
TCFAC 001:070 JLINK_IsHalted()  returns FALSE (0001ms, 0730ms total)
TCFAC 001:073 JLINK_IsHalted()  returns FALSE (0002ms, 0731ms total)
TCFAC 001:077 JLINK_IsHalted()  returns FALSE (0001ms, 0730ms total)
TCFAC 001:080 JLINK_IsHalted() -- CPU_ReadMem(2 bytes @ 0x20000000)  returns TRUE (0007ms, 0736ms total)
TCFAC 001:087 JLINK_ReadReg(R15 (PC))  returns 0x20000000 (0000ms, 0729ms total)
TCFAC 001:087 JLINK_ClrBPEx(BPHandle = 0x00000009)  returns 0x00 (0001ms, 0730ms total)
TCFAC 001:088 JLINK_ReadReg(R0)  returns 0x00000000 (0000ms, 0730ms total)
TCFAC 001:089 JLINK_WriteMem(0x20000190, 0x0400 Bytes, ...) - Data: 46 49 08 70 F0 20 51 49 08 70 02 21 42 48 0C F0 ... -- CPU_WriteMem(1024 bytes @ 0x20000190)  returns 0x400 (0011ms, 0741ms total)
TCFAC 001:101 JLINK_WriteReg(R0, 0x08001400)  returns 0x00 (0000ms, 0741ms total)
TCFAC 001:101 JLINK_WriteReg(R1, 0x00000400)  returns 0x00 (0000ms, 0741ms total)
TCFAC 001:101 JLINK_WriteReg(R2, 0x20000190)  returns 0x00 (0000ms, 0741ms total)
TCFAC 001:101 JLINK_WriteReg(R3, 0x00000000)  returns 0x00 (0000ms, 0741ms total)
TCFAC 001:101 JLINK_WriteReg(R4, 0x00000000)  returns 0x00 (0001ms, 0742ms total)
TCFAC 001:102 JLINK_WriteReg(R5, 0x00000000)  returns 0x00 (0000ms, 0742ms total)
TCFAC 001:102 JLINK_WriteReg(R6, 0x00000000)  returns 0x00 (0000ms, 0742ms total)
TCFAC 001:102 JLINK_WriteReg(R7, 0x00000000)  returns 0x00 (0000ms, 0742ms total)
TCFAC 001:102 JLINK_WriteReg(R8, 0x00000000)  returns 0x00 (0000ms, 0742ms total)
TCFAC 001:102 JLINK_WriteReg(R9, 0x2000018C)  returns 0x00 (0000ms, 0742ms total)
TCFAC 001:102 JLINK_WriteReg(R10, 0x00000000)  returns 0x00 (0000ms, 0742ms total)
TCFAC 001:102 JLINK_WriteReg(R11, 0x00000000)  returns 0x00 (0000ms, 0742ms total)
TCFAC 001:102 JLINK_WriteReg(R12, 0x00000000)  returns 0x00 (0000ms, 0742ms total)
TCFAC 001:102 JLINK_WriteReg(R13 (SP), 0x20001000)  returns 0x00 (0000ms, 0742ms total)
TCFAC 001:102 JLINK_WriteReg(R14, 0x20000001)  returns 0x00 (0000ms, 0742ms total)
TCFAC 001:102 JLINK_WriteReg(R15 (PC), 0x2000011A)  returns 0x00 (0000ms, 0742ms total)
TCFAC 001:102 JLINK_WriteReg(XPSR, 0x01000000)  returns 0x00 (0000ms, 0742ms total)
TCFAC 001:102 JLINK_WriteReg(MSP, 0x20001000)  returns 0x00 (0000ms, 0742ms total)
TCFAC 001:102 JLINK_WriteReg(PSP, 0x20001000)  returns 0x00 (0000ms, 0742ms total)
TCFAC 001:102 JLINK_WriteReg(CFBP, 0x00000000)  returns 0x00 (0000ms, 0742ms total)
TCFAC 001:102 JLINK_SetBPEx(Addr = 0x20000000, Type = 0xFFFFFFF2)  returns 0x0000000A (0000ms, 0742ms total)
TCFAC 001:102 JLINK_Go() -- CPU_ReadMem(4 bytes @ 0xE0001000) (0005ms, 0747ms total)
TCFAC 001:107 JLINK_IsHalted()  returns FALSE (0001ms, 0748ms total)
TCFAC 001:110 JLINK_IsHalted()  returns FALSE (0001ms, 0748ms total)
TCFAC 001:113 JLINK_IsHalted()  returns FALSE (0001ms, 0748ms total)
TCFAC 001:116 JLINK_IsHalted()  returns FALSE (0001ms, 0748ms total)
TCFAC 001:119 JLINK_IsHalted() -- CPU_ReadMem(2 bytes @ 0x20000000)  returns TRUE (0007ms, 0754ms total)
TCFAC 001:126 JLINK_ReadReg(R15 (PC))  returns 0x20000000 (0000ms, 0747ms total)
TCFAC 001:126 JLINK_ClrBPEx(BPHandle = 0x0000000A)  returns 0x00 (0000ms, 0747ms total)
TCFAC 001:126 JLINK_ReadReg(R0)  returns 0x00000000 (0000ms, 0747ms total)
TCFAC 001:128 JLINK_WriteMem(0x20000190, 0x0400 Bytes, ...) - Data: 80 70 15 49 48 60 13 48 00 69 00 F4 00 40 B0 F5 ... -- CPU_WriteMem(1024 bytes @ 0x20000190)  returns 0x400 (0011ms, 0758ms total)
TCFAC 001:139 JLINK_WriteReg(R0, 0x08001800)  returns 0x00 (0000ms, 0758ms total)
TCFAC 001:139 JLINK_WriteReg(R1, 0x00000400)  returns 0x00 (0000ms, 0758ms total)
TCFAC 001:139 JLINK_WriteReg(R2, 0x20000190)  returns 0x00 (0000ms, 0758ms total)
TCFAC 001:139 JLINK_WriteReg(R3, 0x00000000)  returns 0x00 (0000ms, 0758ms total)
TCFAC 001:139 JLINK_WriteReg(R4, 0x00000000)  returns 0x00 (0000ms, 0758ms total)
TCFAC 001:139 JLINK_WriteReg(R5, 0x00000000)  returns 0x00 (0000ms, 0758ms total)
TCFAC 001:139 JLINK_WriteReg(R6, 0x00000000)  returns 0x00 (0000ms, 0758ms total)
TCFAC 001:139 JLINK_WriteReg(R7, 0x00000000)  returns 0x00 (0001ms, 0759ms total)
TCFAC 001:140 JLINK_WriteReg(R8, 0x00000000)  returns 0x00 (0000ms, 0759ms total)
TCFAC 001:140 JLINK_WriteReg(R9, 0x2000018C)  returns 0x00 (0000ms, 0759ms total)
TCFAC 001:140 JLINK_WriteReg(R10, 0x00000000)  returns 0x00 (0000ms, 0759ms total)
TCFAC 001:140 JLINK_WriteReg(R11, 0x00000000)  returns 0x00 (0000ms, 0759ms total)
TCFAC 001:140 JLINK_WriteReg(R12, 0x00000000)  returns 0x00 (0000ms, 0759ms total)
TCFAC 001:140 JLINK_WriteReg(R13 (SP), 0x20001000)  returns 0x00 (0000ms, 0759ms total)
TCFAC 001:140 JLINK_WriteReg(R14, 0x20000001)  returns 0x00 (0000ms, 0759ms total)
TCFAC 001:140 JLINK_WriteReg(R15 (PC), 0x2000011A)  returns 0x00 (0000ms, 0759ms total)
TCFAC 001:140 JLINK_WriteReg(XPSR, 0x01000000)  returns 0x00 (0000ms, 0759ms total)
TCFAC 001:140 JLINK_WriteReg(MSP, 0x20001000)  returns 0x00 (0000ms, 0759ms total)
TCFAC 001:140 JLINK_WriteReg(PSP, 0x20001000)  returns 0x00 (0000ms, 0759ms total)
TCFAC 001:140 JLINK_WriteReg(CFBP, 0x00000000)  returns 0x00 (0000ms, 0759ms total)
TCFAC 001:140 JLINK_SetBPEx(Addr = 0x20000000, Type = 0xFFFFFFF2)  returns 0x0000000B (0000ms, 0759ms total)
TCFAC 001:140 JLINK_Go() -- CPU_ReadMem(4 bytes @ 0xE0001000) (0006ms, 0765ms total)
TCFAC 001:146 JLINK_IsHalted()  returns FALSE (0001ms, 0766ms total)
TCFAC 001:161 JLINK_IsHalted() -- CPU_ReadMem(2 bytes @ 0x20000000)  returns TRUE (0008ms, 0773ms total)
TCFAC 001:169 JLINK_ReadReg(R15 (PC))  returns 0x20000000 (0000ms, 0765ms total)
TCFAC 001:169 JLINK_ClrBPEx(BPHandle = 0x0000000B)  returns 0x00 (0000ms, 0765ms total)
TCFAC 001:169 JLINK_ReadReg(R0)  returns 0x00000000 (0000ms, 0765ms total)
TCFAC 001:170 JLINK_WriteMem(0x20000190, 0x0400 Bytes, ...) - Data: 26 EA 07 00 0E 78 0A 3E 4F F0 38 0C 9C FA AC FC ... -- CPU_WriteMem(1024 bytes @ 0x20000190)  returns 0x400 (0011ms, 0776ms total)
TCFAC 001:181 JLINK_WriteReg(R0, 0x08001C00)  returns 0x00 (0001ms, 0777ms total)
TCFAC 001:182 JLINK_WriteReg(R1, 0x00000400)  returns 0x00 (0000ms, 0777ms total)
TCFAC 001:182 JLINK_WriteReg(R2, 0x20000190)  returns 0x00 (0000ms, 0777ms total)
TCFAC 001:182 JLINK_WriteReg(R3, 0x00000000)  returns 0x00 (0000ms, 0777ms total)
TCFAC 001:182 JLINK_WriteReg(R4, 0x00000000)  returns 0x00 (0000ms, 0777ms total)
TCFAC 001:182 JLINK_WriteReg(R5, 0x00000000)  returns 0x00 (0000ms, 0777ms total)
TCFAC 001:182 JLINK_WriteReg(R6, 0x00000000)  returns 0x00 (0000ms, 0777ms total)
TCFAC 001:182 JLINK_WriteReg(R7, 0x00000000)  returns 0x00 (0000ms, 0777ms total)
TCFAC 001:182 JLINK_WriteReg(R8, 0x00000000)  returns 0x00 (0000ms, 0777ms total)
TCFAC 001:182 JLINK_WriteReg(R9, 0x2000018C)  returns 0x00 (0000ms, 0777ms total)
TCFAC 001:182 JLINK_WriteReg(R10, 0x00000000)  returns 0x00 (0000ms, 0777ms total)
TCFAC 001:182 JLINK_WriteReg(R11, 0x00000000)  returns 0x00 (0000ms, 0777ms total)
TCFAC 001:182 JLINK_WriteReg(R12, 0x00000000)  returns 0x00 (0000ms, 0777ms total)
TCFAC 001:182 JLINK_WriteReg(R13 (SP), 0x20001000)  returns 0x00 (0000ms, 0777ms total)
TCFAC 001:182 JLINK_WriteReg(R14, 0x20000001)  returns 0x00 (0000ms, 0777ms total)
TCFAC 001:182 JLINK_WriteReg(R15 (PC), 0x2000011A)  returns 0x00 (0000ms, 0777ms total)
TCFAC 001:182 JLINK_WriteReg(XPSR, 0x01000000)  returns 0x00 (0000ms, 0777ms total)
TCFAC 001:182 JLINK_WriteReg(MSP, 0x20001000)  returns 0x00 (0000ms, 0777ms total)
TCFAC 001:182 JLINK_WriteReg(PSP, 0x20001000)  returns 0x00 (0000ms, 0777ms total)
TCFAC 001:182 JLINK_WriteReg(CFBP, 0x00000000)  returns 0x00 (0000ms, 0777ms total)
TCFAC 001:182 JLINK_SetBPEx(Addr = 0x20000000, Type = 0xFFFFFFF2)  returns 0x0000000C (0000ms, 0777ms total)
TCFAC 001:182 JLINK_Go() -- CPU_ReadMem(4 bytes @ 0xE0001000) (0006ms, 0783ms total)
TCFAC 001:188 JLINK_IsHalted()  returns FALSE (0002ms, 0785ms total)
TCFAC 001:192 JLINK_IsHalted()  returns FALSE (0000ms, 0783ms total)
TCFAC 001:194 JLINK_IsHalted()  returns FALSE (0001ms, 0784ms total)
TCFAC 001:198 JLINK_IsHalted()  returns FALSE (0000ms, 0783ms total)
TCFAC 001:201 JLINK_IsHalted() -- CPU_ReadMem(2 bytes @ 0x20000000)  returns TRUE (0007ms, 0790ms total)
TCFAC 001:208 JLINK_ReadReg(R15 (PC))  returns 0x20000000 (0000ms, 0783ms total)
TCFAC 001:208 JLINK_ClrBPEx(BPHandle = 0x0000000C)  returns 0x00 (0000ms, 0783ms total)
TCFAC 001:208 JLINK_ReadReg(R0)  returns 0x00000000 (0000ms, 0783ms total)
TCFAC 001:208 JLINK_WriteMem(0x20000190, 0x0400 Bytes, ...) - Data: 00 28 F9 D1 27 E0 08 68 12 28 0E D1 17 4E 10 68 ... -- CPU_WriteMem(1024 bytes @ 0x20000190)  returns 0x400 (0013ms, 0796ms total)
TCFAC 001:221 JLINK_WriteReg(R0, 0x08002000)  returns 0x00 (0000ms, 0796ms total)
TCFAC 001:221 JLINK_WriteReg(R1, 0x00000400)  returns 0x00 (0000ms, 0796ms total)
TCFAC 001:221 JLINK_WriteReg(R2, 0x20000190)  returns 0x00 (0000ms, 0796ms total)
TCFAC 001:221 JLINK_WriteReg(R3, 0x00000000)  returns 0x00 (0000ms, 0796ms total)
TCFAC 001:221 JLINK_WriteReg(R4, 0x00000000)  returns 0x00 (0000ms, 0796ms total)
TCFAC 001:221 JLINK_WriteReg(R5, 0x00000000)  returns 0x00 (0000ms, 0796ms total)
TCFAC 001:221 JLINK_WriteReg(R6, 0x00000000)  returns 0x00 (0000ms, 0796ms total)
TCFAC 001:221 JLINK_WriteReg(R7, 0x00000000)  returns 0x00 (0000ms, 0796ms total)
TCFAC 001:221 JLINK_WriteReg(R8, 0x00000000)  returns 0x00 (0000ms, 0796ms total)
TCFAC 001:221 JLINK_WriteReg(R9, 0x2000018C)  returns 0x00 (0000ms, 0796ms total)
TCFAC 001:221 JLINK_WriteReg(R10, 0x00000000)  returns 0x00 (0000ms, 0796ms total)
TCFAC 001:221 JLINK_WriteReg(R11, 0x00000000)  returns 0x00 (0000ms, 0796ms total)
TCFAC 001:221 JLINK_WriteReg(R12, 0x00000000)  returns 0x00 (0000ms, 0796ms total)
TCFAC 001:221 JLINK_WriteReg(R13 (SP), 0x20001000)  returns 0x00 (0000ms, 0796ms total)
TCFAC 001:221 JLINK_WriteReg(R14, 0x20000001)  returns 0x00 (0000ms, 0796ms total)
TCFAC 001:221 JLINK_WriteReg(R15 (PC), 0x2000011A)  returns 0x00 (0000ms, 0796ms total)
TCFAC 001:221 JLINK_WriteReg(XPSR, 0x01000000)  returns 0x00 (0000ms, 0796ms total)
TCFAC 001:221 JLINK_WriteReg(MSP, 0x20001000)  returns 0x00 (0000ms, 0796ms total)
TCFAC 001:221 JLINK_WriteReg(PSP, 0x20001000)  returns 0x00 (0000ms, 0796ms total)
TCFAC 001:221 JLINK_WriteReg(CFBP, 0x00000000)  returns 0x00 (0000ms, 0796ms total)
TCFAC 001:221 JLINK_SetBPEx(Addr = 0x20000000, Type = 0xFFFFFFF2)  returns 0x0000000D (0001ms, 0797ms total)
TCFAC 001:222 JLINK_Go() -- CPU_ReadMem(4 bytes @ 0xE0001000) (0005ms, 0802ms total)
TCFAC 001:227 JLINK_IsHalted()  returns FALSE (0002ms, 0804ms total)
TCFAC 001:231 JLINK_IsHalted()  returns FALSE (0001ms, 0803ms total)
TCFAC 001:234 JLINK_IsHalted()  returns FALSE (0001ms, 0803ms total)
TCFAC 001:237 JLINK_IsHalted()  returns FALSE (0001ms, 0803ms total)
TCFAC 001:240 JLINK_IsHalted() -- CPU_ReadMem(2 bytes @ 0x20000000)  returns TRUE (0007ms, 0809ms total)
TCFAC 001:247 JLINK_ReadReg(R15 (PC))  returns 0x20000000 (0000ms, 0802ms total)
TCFAC 001:247 JLINK_ClrBPEx(BPHandle = 0x0000000D)  returns 0x00 (0000ms, 0802ms total)
TCFAC 001:247 JLINK_ReadReg(R0)  returns 0x00000000 (0000ms, 0802ms total)
TCFAC 001:248 JLINK_WriteMem(0x20000190, 0x0400 Bytes, ...) - Data: 03 90 01 A9 3D 48 00 F0 E9 FE 01 20 01 90 0B 20 ... -- CPU_WriteMem(1024 bytes @ 0x20000190)  returns 0x400 (0012ms, 0814ms total)
TCFAC 001:260 JLINK_WriteReg(R0, 0x08002400)  returns 0x00 (0000ms, 0814ms total)
TCFAC 001:260 JLINK_WriteReg(R1, 0x00000400)  returns 0x00 (0000ms, 0814ms total)
TCFAC 001:260 JLINK_WriteReg(R2, 0x20000190)  returns 0x00 (0000ms, 0814ms total)
TCFAC 001:260 JLINK_WriteReg(R3, 0x00000000)  returns 0x00 (0000ms, 0814ms total)
TCFAC 001:260 JLINK_WriteReg(R4, 0x00000000)  returns 0x00 (0000ms, 0814ms total)
TCFAC 001:260 JLINK_WriteReg(R5, 0x00000000)  returns 0x00 (0000ms, 0814ms total)
TCFAC 001:260 JLINK_WriteReg(R6, 0x00000000)  returns 0x00 (0001ms, 0815ms total)
TCFAC 001:261 JLINK_WriteReg(R7, 0x00000000)  returns 0x00 (0000ms, 0815ms total)
TCFAC 001:261 JLINK_WriteReg(R8, 0x00000000)  returns 0x00 (0000ms, 0815ms total)
TCFAC 001:261 JLINK_WriteReg(R9, 0x2000018C)  returns 0x00 (0000ms, 0815ms total)
TCFAC 001:261 JLINK_WriteReg(R10, 0x00000000)  returns 0x00 (0000ms, 0815ms total)
TCFAC 001:261 JLINK_WriteReg(R11, 0x00000000)  returns 0x00 (0000ms, 0815ms total)
TCFAC 001:261 JLINK_WriteReg(R12, 0x00000000)  returns 0x00 (0000ms, 0815ms total)
TCFAC 001:261 JLINK_WriteReg(R13 (SP), 0x20001000)  returns 0x00 (0000ms, 0815ms total)
TCFAC 001:261 JLINK_WriteReg(R14, 0x20000001)  returns 0x00 (0000ms, 0815ms total)
TCFAC 001:261 JLINK_WriteReg(R15 (PC), 0x2000011A)  returns 0x00 (0000ms, 0815ms total)
TCFAC 001:261 JLINK_WriteReg(XPSR, 0x01000000)  returns 0x00 (0000ms, 0815ms total)
TCFAC 001:261 JLINK_WriteReg(MSP, 0x20001000)  returns 0x00 (0000ms, 0815ms total)
TCFAC 001:261 JLINK_WriteReg(PSP, 0x20001000)  returns 0x00 (0000ms, 0815ms total)
TCFAC 001:261 JLINK_WriteReg(CFBP, 0x00000000)  returns 0x00 (0000ms, 0815ms total)
TCFAC 001:261 JLINK_SetBPEx(Addr = 0x20000000, Type = 0xFFFFFFF2)  returns 0x0000000E (0000ms, 0815ms total)
TCFAC 001:261 JLINK_Go() -- CPU_ReadMem(4 bytes @ 0xE0001000) (0006ms, 0821ms total)
TCFAC 001:267 JLINK_IsHalted()  returns FALSE (0001ms, 0822ms total)
TCFAC 001:274 JLINK_IsHalted()  returns FALSE (0001ms, 0822ms total)
TCFAC 001:277 JLINK_IsHalted()  returns FALSE (0001ms, 0822ms total)
TCFAC 001:280 JLINK_IsHalted() -- CPU_ReadMem(2 bytes @ 0x20000000)  returns TRUE (0007ms, 0828ms total)
TCFAC 001:288 JLINK_ReadReg(R15 (PC))  returns 0x20000000 (0000ms, 0821ms total)
TCFAC 001:288 JLINK_ClrBPEx(BPHandle = 0x0000000E)  returns 0x00 (0000ms, 0821ms total)
TCFAC 001:288 JLINK_ReadReg(R0)  returns 0x00000000 (0000ms, 0821ms total)
TCFAC 001:289 JLINK_WriteMem(0x20000190, 0x0400 Bytes, ...) - Data: 00 6B FB E7 10 B5 04 46 20 68 00 68 00 F4 00 50 ... -- CPU_WriteMem(1024 bytes @ 0x20000190)  returns 0x400 (0011ms, 0832ms total)
TCFAC 001:300 JLINK_WriteReg(R0, 0x08002800)  returns 0x00 (0000ms, 0832ms total)
TCFAC 001:300 JLINK_WriteReg(R1, 0x00000400)  returns 0x00 (0000ms, 0832ms total)
TCFAC 001:300 JLINK_WriteReg(R2, 0x20000190)  returns 0x00 (0000ms, 0832ms total)
TCFAC 001:300 JLINK_WriteReg(R3, 0x00000000)  returns 0x00 (0000ms, 0832ms total)
TCFAC 001:301 JLINK_WriteReg(R4, 0x00000000)  returns 0x00 (0000ms, 0833ms total)
TCFAC 001:301 JLINK_WriteReg(R5, 0x00000000)  returns 0x00 (0000ms, 0833ms total)
TCFAC 001:301 JLINK_WriteReg(R6, 0x00000000)  returns 0x00 (0000ms, 0833ms total)
TCFAC 001:301 JLINK_WriteReg(R7, 0x00000000)  returns 0x00 (0000ms, 0833ms total)
TCFAC 001:301 JLINK_WriteReg(R8, 0x00000000)  returns 0x00 (0000ms, 0833ms total)
TCFAC 001:301 JLINK_WriteReg(R9, 0x2000018C)  returns 0x00 (0000ms, 0833ms total)
TCFAC 001:301 JLINK_WriteReg(R10, 0x00000000)  returns 0x00 (0000ms, 0833ms total)
TCFAC 001:301 JLINK_WriteReg(R11, 0x00000000)  returns 0x00 (0000ms, 0833ms total)
TCFAC 001:301 JLINK_WriteReg(R12, 0x00000000)  returns 0x00 (0000ms, 0833ms total)
TCFAC 001:301 JLINK_WriteReg(R13 (SP), 0x20001000)  returns 0x00 (0000ms, 0833ms total)
TCFAC 001:301 JLINK_WriteReg(R14, 0x20000001)  returns 0x00 (0000ms, 0833ms total)
TCFAC 001:301 JLINK_WriteReg(R15 (PC), 0x2000011A)  returns 0x00 (0000ms, 0833ms total)
TCFAC 001:301 JLINK_WriteReg(XPSR, 0x01000000)  returns 0x00 (0000ms, 0833ms total)
TCFAC 001:301 JLINK_WriteReg(MSP, 0x20001000)  returns 0x00 (0000ms, 0833ms total)
TCFAC 001:301 JLINK_WriteReg(PSP, 0x20001000)  returns 0x00 (0000ms, 0833ms total)
TCFAC 001:301 JLINK_WriteReg(CFBP, 0x00000000)  returns 0x00 (0000ms, 0833ms total)
TCFAC 001:301 JLINK_SetBPEx(Addr = 0x20000000, Type = 0xFFFFFFF2)  returns 0x0000000F (0000ms, 0833ms total)
TCFAC 001:301 JLINK_Go() -- CPU_ReadMem(4 bytes @ 0xE0001000) (0006ms, 0839ms total)
TCFAC 001:307 JLINK_IsHalted()  returns FALSE (0001ms, 0840ms total)
TCFAC 001:310 JLINK_IsHalted()  returns FALSE (0001ms, 0840ms total)
TCFAC 001:313 JLINK_IsHalted()  returns FALSE (0001ms, 0840ms total)
TCFAC 001:316 JLINK_IsHalted()  returns FALSE (0002ms, 0841ms total)
TCFAC 001:319 JLINK_IsHalted() -- CPU_ReadMem(2 bytes @ 0x20000000)  returns TRUE (0008ms, 0847ms total)
TCFAC 001:327 JLINK_ReadReg(R15 (PC))  returns 0x20000000 (0000ms, 0839ms total)
TCFAC 001:327 JLINK_ClrBPEx(BPHandle = 0x0000000F)  returns 0x00 (0000ms, 0839ms total)
TCFAC 001:327 JLINK_ReadReg(R0)  returns 0x00000000 (0000ms, 0839ms total)
TCFAC 001:329 JLINK_WriteMem(0x20000190, 0x0400 Bytes, ...) - Data: 04 46 0D 46 16 46 1F 46 4F F0 00 08 00 BF 94 F8 ... -- CPU_WriteMem(1024 bytes @ 0x20000190)  returns 0x400 (0012ms, 0851ms total)
TCFAC 001:341 JLINK_WriteReg(R0, 0x08002C00)  returns 0x00 (0000ms, 0851ms total)
TCFAC 001:341 JLINK_WriteReg(R1, 0x00000400)  returns 0x00 (0000ms, 0851ms total)
TCFAC 001:341 JLINK_WriteReg(R2, 0x20000190)  returns 0x00 (0000ms, 0851ms total)
TCFAC 001:341 JLINK_WriteReg(R3, 0x00000000)  returns 0x00 (0000ms, 0851ms total)
TCFAC 001:341 JLINK_WriteReg(R4, 0x00000000)  returns 0x00 (0000ms, 0851ms total)
TCFAC 001:341 JLINK_WriteReg(R5, 0x00000000)  returns 0x00 (0000ms, 0851ms total)
TCFAC 001:341 JLINK_WriteReg(R6, 0x00000000)  returns 0x00 (0000ms, 0851ms total)
TCFAC 001:341 JLINK_WriteReg(R7, 0x00000000)  returns 0x00 (0000ms, 0851ms total)
TCFAC 001:341 JLINK_WriteReg(R8, 0x00000000)  returns 0x00 (0000ms, 0851ms total)
TCFAC 001:341 JLINK_WriteReg(R9, 0x2000018C)  returns 0x00 (0000ms, 0851ms total)
TCFAC 001:341 JLINK_WriteReg(R10, 0x00000000)  returns 0x00 (0000ms, 0851ms total)
TCFAC 001:341 JLINK_WriteReg(R11, 0x00000000)  returns 0x00 (0000ms, 0851ms total)
TCFAC 001:341 JLINK_WriteReg(R12, 0x00000000)  returns 0x00 (0000ms, 0851ms total)
TCFAC 001:341 JLINK_WriteReg(R13 (SP), 0x20001000)  returns 0x00 (0000ms, 0851ms total)
TCFAC 001:341 JLINK_WriteReg(R14, 0x20000001)  returns 0x00 (0000ms, 0851ms total)
TCFAC 001:341 JLINK_WriteReg(R15 (PC), 0x2000011A)  returns 0x00 (0000ms, 0851ms total)
TCFAC 001:341 JLINK_WriteReg(XPSR, 0x01000000)  returns 0x00 (0000ms, 0851ms total)
TCFAC 001:341 JLINK_WriteReg(MSP, 0x20001000)  returns 0x00 (0000ms, 0851ms total)
TCFAC 001:341 JLINK_WriteReg(PSP, 0x20001000)  returns 0x00 (0000ms, 0851ms total)
TCFAC 001:341 JLINK_WriteReg(CFBP, 0x00000000)  returns 0x00 (0000ms, 0851ms total)
